Frequency;|Z|;|Z|;|Z|;|Z|;Z';Z';Z';Z';Z'';Z'';Z'';Z''
Hz;0 h;1 h;2 h;3 h;0 h;1 h;2 h;3 h;0 h;1 h;2 h;3 h
96172.29945;30.9083;31.96862;26.82559;28.57838;30.85969;31.92286;26.77253;28.54988;-1.73264;-1.70987;-1.68641;-1.27591
79122.49981;30.90415;31.91905;26.90461;28.6188;30.87092;31.89361;26.87686;28.59157;-1.43268;-1.27433;-1.2216;-1.2481
65096.85393;31.02749;31.94831;26.80044;28.61478;31.01011;31.93461;26.78203;28.60516;-1.03852;-0.93533;-0.99316;-0.74215
53557.46344;31.00356;31.9829;26.81068;28.57603;30.9965;31.97811;26.80236;28.57331;-0.66172;-0.55389;-0.66791;-0.3942
44061.57326;30.9898;31.99338;26.74995;28.64692;30.98794;31.99243;26.74708;28.64665;-0.33975;-0.24696;-0.39174;-0.12543
36251.00073;31.02658;32.01997;27.00856;28.70602;31.0265;32.01995;27.00808;28.70564;-0.06807;0.03226;-0.16158;0.14666
29824.96894;31.07825;32.09316;27.04018;28.71896;31.07743;32.09097;27.04006;28.71709;0.22583;0.37508;0.08094;0.32767
24538.04734;31.12645;32.12885;27.06809;28.76238;31.12208;32.12092;27.0667;28.75605;0.52166;0.71405;0.27434;0.60316
20187.84678;31.17801;32.19118;27.16066;28.82105;31.16574;32.17531;27.15482;28.80828;0.87454;1.01091;0.56332;0.85784
16608.86672;31.32495;32.27153;27.18198;28.92921;31.30396;32.24321;27.17162;28.90677;1.1465;1.35164;0.75052;1.13918
13664.06754;31.41263;32.43552;27.27531;29.08536;31.37584;32.38664;27.2554;29.04862;1.51988;1.78011;1.0421;1.4615
11241.9073;31.56867;32.6275;27.36833;29.22787;31.51181;32.5539;27.33661;29.17641;1.89384;2.19033;1.31747;1.73366
9249.111181;31.8056;32.9474;27.45209;29.42712;31.72723;32.84297;27.39926;29.35457;2.23137;2.62117;1.70237;2.06516
7609.56796;32.03066;33.23939;27.71282;29.74445;31.91066;33.0785;27.63769;29.63642;2.77005;3.26651;2.03919;2.53277
6260.514129;32.45871;33.502;27.87728;29.98824;32.28899;33.28659;27.782;29.85153;3.31496;3.793;2.30282;2.86014
5150.744411;32.80108;33.96817;28.19152;30.3222;32.57449;33.67778;28.06371;30.13859;3.84878;4.4321;2.68147;3.3319
4237.600391;33.23573;34.5605;28.53792;30.7763;32.94569;34.17417;28.36081;30.53629;4.38128;5.1531;3.17449;3.83605
3486.422374;33.76774;35.23259;28.82423;31.24143;33.4126;34.74527;28.5901;30.94544;4.88455;5.83965;3.66637;4.29027
2868.269798;34.28529;35.97833;29.35574;31.82037;33.84567;35.36446;29.06272;31.442;5.47285;6.61783;4.13735;4.89254
2359.826099;34.92083;36.85492;30.13229;32.40099;34.37389;36.11285;29.83991;31.95884;6.15627;7.35849;4.18746;5.33446
1941.511646;35.47381;37.93495;30.56008;33.11655;34.78513;37.0316;30.10617;32.57436;6.95603;8.22928;5.24759;5.96802
1597.312903;36.18188;39.03951;31.27704;33.82688;35.34527;37.99769;30.74868;33.20523;7.73566;8.95873;5.72464;6.4553
1314.104795;36.86374;40.15306;31.8828;34.60453;35.82951;38.9285;31.24644;33.85736;8.67072;9.84075;6.33821;7.15208
1081.209866;37.73967;41.3749;32.62;35.36294;36.39817;39.98318;31.87074;34.48391;9.97278;10.64084;6.95132;7.83566
889.5082901;38.62918;42.64343;33.41409;36.18959;36.89775;40.99712;32.52221;35.13197;11.43546;11.73448;7.66856;8.6851
731.8127977;39.81475;43.97568;34.18399;37.01624;37.52482;42.06417;33.1258;35.74769;13.30798;12.82445;8.43957;9.60752
602.0880395;41.34338;45.40801;35.13452;37.95117;38.33413;43.14632;33.89673;36.38734;15.4845;14.15211;9.2437;10.78208
495.347528;43.32062;47.01509;36.08096;39.17072;39.28014;44.31244;34.51287;37.20939;18.26874;15.71071;10.5213;12.23956
407.5397737;45.96996;48.85294;37.38993;40.56331;40.63309;45.55795;35.43989;38.06633;21.49858;17.63756;11.91728;14.01203
335.2895361;49.52625;51.08109;38.84273;42.22547;42.57865;47.04804;36.38972;39.06573;25.29641;19.89371;13.58478;16.02684
275.8481019;53.95787;53.79074;40.71136;44.48801;45.08551;48.81506;37.63933;40.43939;29.64368;22.59498;15.51437;18.54289
226.9499022;59.4744;57.11688;42.99878;47.40785;48.50236;50.96424;39.17243;42.25266;34.41983;25.78728;17.73179;21.49923
186.7196394;66.01552;61.14297;45.89877;51.06009;53.00726;53.68853;41.24602;44.6734;39.34818;29.25756;20.1361;24.7269
153.6207921;73.50559;65.93139;49.36463;55.32142;58.64053;57.02091;43.75478;47.60785;44.32109;33.09931;22.85575;28.17715
126.3804799;81.47629;71.63332;53.31204;60.45853;65.18739;61.16845;46.85158;51.38535;48.87729;37.2794;25.43822;31.85561
103.9800447;90.75349;78.11665;57.79136;66.25764;73.33589;66.20815;50.57243;56.01909;53.46067;41.4571;27.9691;35.38271
85.54605763;99.84282;85.33959;62.47325;72.58642;82.06628;72.08118;54.69429;61.38562;56.86576;45.68532;30.19009;38.73749
70.3817401;109.36262;93.30645;67.63888;79.33289;91.74537;79.00078;59.40597;67.44643;59.52285;49.64846;32.34113;41.76944
57.90419123;119.01453;101.6829;72.892;86.38347;102.08136;86.77113;64.51712;74.20038;61.18705;53.01116;33.92321;44.23129
47.63871079;128.46513;110.50949;78.20871;93.50121;112.72905;95.42615;69.99491;81.51892;61.60724;55.73328;34.89004;45.79456
39.19403716;137.43243;119.85593;83.62513;100.75521;123.4798;104.97785;75.63396;89.30704;60.33584;57.83681;35.67446;46.64617
32.24630816;145.76935;129.13704;88.8517;107.52126;133.81284;115.0167;81.38112;96.91448;57.81718;58.71569;35.66142;46.56612
26.52894626;152.90505;138.16734;93.81061;114.01832;143.14398;125.28789;87.06754;104.52276;53.75646;58.25083;34.92383;45.55402
21.82579139;158.96864;145.98816;98.12532;119.97166;151.26499;134.72912;92.20475;111.70984;48.88694;56.21927;33.56878;43.75054
17.9568436;164.32137;153.67498;102.22464;125.52173;158.37836;144.10684;97.14661;118.55089;43.79276;53.37805;31.81842;41.2479
14.77406482;168.45715;159.95735;105.53932;130.32377;164.05321;152.28497;101.23189;124.77026;38.26689;48.94531;29.8438;37.63864
12.15486109;171.32422;165.70838;108.97926;134.13009;168.14132;159.63448;105.35769;129.50977;32.87071;44.45337;27.86101;34.90128
10;173.84653;170.0904;111.65058;137.18057;171.64035;165.53778;108.55881;133.59576;27.60811;39.08949;26.09281;31.15575